T0CE0 5079:087 SEGGER J-Link V6.46 Log File (0001ms, 2804ms total)
T0CE0 5079:087 DLL Compiled: May 23 2019 17:49:56 (0001ms, 2804ms total)
T0CE0 5079:087 Logging started @ 2020-08-04 12:27 (0001ms, 2804ms total)
T0CE0 5079:088 JLINK_SetWarnOutHandler(...) (0000ms, 2804ms total)
T0CE0 5079:088 JLINK_OpenEx(...)
Firmware: J-Link V9 compiled Jun  2 2222 22:22:22
Hardware: V9.40
S/N: 81480416
Feature(s): GDB, RDI, FlashBP, FlashDL, JFlash, RDDI
TELNET listener socket opened on port 19021WEBSRV 
Starting webserver (0037ms, 2841ms total)
T0CE0 5079:088 WEBSRV Webserver running on local port 19080 (0037ms, 2841ms total)
T0CE0 5079:088   returns O.K. (0037ms, 2841ms total)
T0CE0 5079:125 JLINK_GetEmuCaps()  returns 0xB9FF7BBF (0000ms, 2841ms total)
T0CE0 5079:126 JLINK_TIF_GetAvailable(...) (0000ms, 2841ms total)
T0CE0 5079:126 JLINK_SetErrorOutHandler(...) (0000ms, 2841ms total)
T0CE0 5079:126 JLINK_ExecCommand("ProjectFile = "F:\lzw\Desktop\串口3-DMA-不定长\Project\JLinkSettings.ini"", ...).   returns 0x00 (0002ms, 2843ms total)
T0CE0 5079:128 JLINK_ExecCommand("Device = STM32F407ZGTx", ...). Device "STM32F407ZG" selected.  returns 0x00 (0003ms, 2846ms total)
T0CE0 5079:131 JLINK_ExecCommand("DisableConnectionTimeout", ...).   returns 0x01 (0000ms, 2846ms total)
T0CE0 5079:131 JLINK_GetHardwareVersion()  returns 0x16F30 (0000ms, 2846ms total)
T0CE0 5079:131 JLINK_GetDLLVersion()  returns 64600 (0000ms, 2846ms total)
T0CE0 5079:131 JLINK_GetFirmwareString(...) (0000ms, 2846ms total)
T0CE0 5079:132 JLINK_GetDLLVersion()  returns 64600 (0000ms, 2846ms total)
T0CE0 5079:132 JLINK_GetCompileDateTime() (0000ms, 2846ms total)
T0CE0 5079:132 JLINK_GetFirmwareString(...) (0000ms, 2846ms total)
T0CE0 5079:132 JLINK_GetHardwareVersion()  returns 0x16F30 (0000ms, 2846ms total)
T0CE0 5079:132 JLINK_TIF_Select(JLINKARM_TIF_SWD)  returns 0x00 (0000ms, 2846ms total)
T0CE0 5079:132 JLINK_SetSpeed(5000) (0000ms, 2846ms total)
T0CE0 5079:132 JLINK_GetId() >0x10B TIF>Found SW-DP with ID 0x2BA01477 >0x0D TIF> >0x28 TIF> >0x0D TIF> >0x28 TIF> >0x0D TIF> >0x28 TIF> >0x0D TIF> >0x28 TIF> >0x0D TIF> >0x21 TIF> >0x0D TIF> >0x28 TIF> >0x0D TIF> >0x28 TIF> >0x0D TIF> >0x28 TIF> >0x0D TIF> >0x21 TIF> >0x0D TIF> >0x21 TIF> >0x0D TIF> >0x28 TIF> >0x0D TIF> >0x21 TIF> >0x0D TIF> >0x21 TIF> >0x0D TIF> >0x28 TIF> >0x0D TIF> >0x21 TIF> >0x0D TIF> >0x21 TIF> >0x0D TIF> >0x28 TIF> >0x0D TIF> >0x21 TIF> >0x0D TIF> >0x21 TIF> >0x0D TIF>
 >0x28 TIF> >0x0D TIF> >0x21 TIF> >0x0D TIF> >0x21 TIF> >0x0D TIF> >0x28 TIF> >0x0D TIF> >0x21 TIF> >0x0D TIF> >0x21 TIF> >0x10B TIF>Found SW-DP with ID 0x2BA01477 >0x0D TIF> >0x28 TIF> >0x0D TIF> >0x28 TIF> >0x0D TIF> >0x28 TIF> >0x0D TIF> >0x28 TIF> >0x0D TIF> >0x21 TIF> >0x0D TIF> >0x28 TIF>Scanning AP map to find all available APs >0x0D TIF> >0x28 TIF> >0x0D TIF> >0x21 TIF> >0x0D TIF> >0x21 TIF> >0x0D TIF> >0x28 TIF> >0x0D TIF> >0x21 TIF> >0x0D TIF> >0x21 TIF>
AP[1]: Stopped AP scan as end of AP map has been reachedAP[0]: AHB-AP (IDR: 0x24770011)Iterating through AP map to find AHB-AP to use >0x42 TIF> >0x28 TIF> >0x0D TIF> >0x28 TIF> >0x0D TIF> >0x21 TIF> >0x0D TIF> >0x21 TIF> >0x42 TIF> >0x28 TIF> >0x0D TIF> >0x28 TIF> >0x0D TIF> >0x28 TIF> >0x0D TIF> >0x21 TIF> >0x0D TIF> >0x21 TIF>AP[0]: Core foundAP[0]: AHB-AP ROM base: 0xE00FF000 >0x0D TIF> >0x28 TIF> >0x0D TIF> >0x28 TIF> >0x0D TIF> >0x28 TIF> >0x0D TIF> >0x21 TIF> >0x0D TIF> >0x21 TIF>
CPUID register: 0x410FC241. Implementer code: 0x41 (ARM)Found Cortex-M4 r0p1, Little endian. -- Max. mem block: 0x00010FB0 -- CPU_ReadMem(4 bytes @ 0xE000EDF0) -- CPU_WriteMem(4 bytes @ 0xE000EDF0) -- CPU_ReadMem(4 bytes @ 0xE0002000)FPUnit: 6 code (BP) slots and 2 literal slots -- CPU_ReadMem(4 bytes @ 0xE000EDFC) -- CPU_WriteMem(4 bytes @ 0xE000EDFC) -- CPU_ReadMem(4 bytes @ 0xE0001000) -- CPU_WriteMem(4 bytes @ 0xE0001000) -- CPU_ReadMem(4 bytes @ 0xE000ED88) -- CPU_WriteMem(4 bytes @ 0xE000ED88)
 -- CPU_ReadMem(4 bytes @ 0xE000ED88) -- CPU_WriteMem(4 bytes @ 0xE000ED88)CoreSight components:ROMTbl[0] @ E00FF000 -- CPU_ReadMem(16 bytes @ 0xE00FF000) -- CPU_ReadMem(16 bytes @ 0xE000EFF0) -- CPU_ReadMem(16 bytes @ 0xE000EFE0)ROMTbl[0][0]: E000E000, CID: B105E00D, PID: 000BB00C SCS-M7 -- CPU_ReadMem(16 bytes @ 0xE0001FF0) -- CPU_ReadMem(16 bytes @ 0xE0001FE0)ROMTbl[0][1]: E0001000, CID: B105E00D, PID: 003BB002 DWT -- CPU_ReadMem(16 bytes @ 0xE0002FF0) -- CPU_ReadMem(16 bytes @ 0xE0002FE0)
ROMTbl[0][2]: E0002000, CID: B105E00D, PID: 002BB003 FPB -- CPU_ReadMem(16 bytes @ 0xE0000FF0) -- CPU_ReadMem(16 bytes @ 0xE0000FE0)ROMTbl[0][3]: E0000000, CID: B105E00D, PID: 003BB001 ITM -- CPU_ReadMem(16 bytes @ 0xE00FF010) -- CPU_ReadMem(16 bytes @ 0xE0040FF0) -- CPU_ReadMem(16 bytes @ 0xE0040FE0)ROMTbl[0][4]: E0040000, CID: B105900D, PID: 000BB9A1 TPIU -- CPU_ReadMem(16 bytes @ 0xE0041FF0) -- CPU_ReadMem(16 bytes @ 0xE0041FE0)ROMTbl[0][5]: E0041000, CID: B105900D, PID: 000BB925 ETM >0x0D TIF>
 >0x21 TIF>  returns 0x2BA01477 (0124ms, 2970ms total)
T0CE0 5079:256 JLINK_GetDLLVersion()  returns 64600 (0000ms, 2970ms total)
T0CE0 5079:256 JLINK_CORE_GetFound()  returns 0xE0000FF (0000ms, 2970ms total)
T0CE0 5079:256 JLINK_GetDebugInfo(0x100 = JLINKARM_ROM_TABLE_ADDR_INDEX) -- Value=0xE00FF000  returns 0x00 (0000ms, 2970ms total)
T0CE0 5079:256 JLINK_GetDebugInfo(0x100 = JLINKARM_ROM_TABLE_ADDR_INDEX) -- Value=0xE00FF000  returns 0x00 (0000ms, 2970ms total)
T0CE0 5079:256 JLINK_GetDebugInfo(0x101 = JLINKARM_DEBUG_INFO_ETM_ADDR_INDEX) -- Value=0xE0041000  returns 0x00 (0000ms, 2970ms total)
T0CE0 5079:256 JLINK_ReadMemEx(0xE0041FD0, 0x0020 Bytes, ..., Flags = 0x02000004) -- CPU_ReadMem(32 bytes @ 0xE0041FD0) - Data: 04 00 00 00 00 00 00 00 00 00 00 00 00 00 00 00 ...  returns 0x20 (0001ms, 2971ms total)
T0CE0 5079:257 JLINK_GetDebugInfo(0x102 = JLINKARM_DEBUG_INFO_MTB_ADDR_INDEX) -- Value=0x00000000  returns 0x00 (0000ms, 2971ms total)
T0CE0 5079:257 JLINK_GetDebugInfo(0x103 = JLINKARM_DEBUG_INFO_TPIU_ADDR_INDEX) -- Value=0xE0040000  returns 0x00 (0000ms, 2971ms total)
T0CE0 5079:257 JLINK_GetDebugInfo(0x104 = JLINKARM_DEBUG_INFO_ITM_ADDR_INDEX) -- Value=0xE0000000  returns 0x00 (0000ms, 2971ms total)
T0CE0 5079:257 JLINK_GetDebugInfo(0x105 = JLINKARM_DEBUG_INFO_DWT_ADDR_INDEX) -- Value=0xE0001000  returns 0x00 (0000ms, 2971ms total)
T0CE0 5079:257 JLINK_GetDebugInfo(0x106 = JLINKARM_DEBUG_INFO_FPB_ADDR_INDEX) -- Value=0xE0002000  returns 0x00 (0000ms, 2971ms total)
T0CE0 5079:257 JLINK_GetDebugInfo(0x107 = JLINKARM_DEBUG_INFO_NVIC_ADDR_INDEX) -- Value=0xE000E000  returns 0x00 (0000ms, 2971ms total)
T0CE0 5079:257 JLINK_GetDebugInfo(0x10C = JLINKARM_DEBUG_INFO_DBG_ADDR_INDEX) -- Value=0xE000EDF0  returns 0x00 (0000ms, 2971ms total)
T0CE0 5079:257 JLINK_GetDebugInfo(0x01 = Unknown) -- Value=0x00000001  returns 0x00 (0000ms, 2971ms total)
T0CE0 5079:257 JLINK_ReadMemU32(0xE000ED00, 0x0001 Items, ...) -- CPU_ReadMem(4 bytes @ 0xE000ED00) - Data: 41 C2 0F 41  returns 1 (0000ms, 2971ms total)
T0CE0 5079:257 JLINK_GetDebugInfo(0x10F = JLINKARM_DEBUG_INFO_HAS_CORTEX_M_SECURITY_EXT_INDEX) -- Value=0x00000000  returns 0x00 (0000ms, 2971ms total)
T0CE0 5079:257 JLINK_SetResetType(JLINKARM_CM3_RESET_TYPE_NORMAL)  returns JLINKARM_CM3_RESET_TYPE_NORMAL (0000ms, 2971ms total)
T0CE0 5079:257 JLINK_Reset() -- CPU is running -- CPU_WriteMem(4 bytes @ 0xE000EDF0) -- CPU is running -- CPU_WriteMem(4 bytes @ 0xE000EDFC)Reset: Halt core after reset via DEMCR.VC_CORERESET. >0x35 TIF>Reset: Reset device via AIRCR.SYSRESETREQ. -- CPU is running -- CPU_WriteMem(4 bytes @ 0xE000ED0C) >0x0D TIF> >0x28 TIF> -- CPU_ReadMem(4 bytes @ 0xE000EDF0) -- CPU_ReadMem(4 bytes @ 0xE000EDF0) -- CPU is running -- CPU_WriteMem(4 bytes @ 0xE000EDF0) -- CPU is running -- CPU_WriteMem(4 bytes @ 0xE000EDFC)
 -- CPU_ReadMem(4 bytes @ 0xE000EDF0) -- CPU_WriteMem(4 bytes @ 0xE0002000) -- CPU_ReadMem(4 bytes @ 0xE000EDFC) -- CPU_ReadMem(4 bytes @ 0xE0001000) (0063ms, 3034ms total)
T0CE0 5079:320 JLINK_ReadReg(R15 (PC))  returns 0x080002C0 (0000ms, 3034ms total)
T0CE0 5079:320 JLINK_ReadReg(XPSR)  returns 0x01000000 (0000ms, 3034ms total)
T0CE0 5079:320 JLINK_Halt()  returns 0x00 (0000ms, 3034ms total)
T0CE0 5079:320 JLINK_ReadMemU32(0xE000EDF0, 0x0001 Items, ...) -- CPU_ReadMem(4 bytes @ 0xE000EDF0) - Data: 03 00 03 00  returns 1 (0000ms, 3034ms total)
T0CE0 5079:320 JLINK_WriteU32(0xE000EDF0, 0xA05F0003) -- CPU_WriteMem(4 bytes @ 0xE000EDF0)  returns 0 (0000ms, 3034ms total)
T0CE0 5079:320 JLINK_WriteU32(0xE000EDFC, 0x01000000) -- CPU_WriteMem(4 bytes @ 0xE000EDFC)  returns 0 (0001ms, 3035ms total)
T0CE0 5079:321 JLINK_GetHWStatus(...)  returns 0x00 (0000ms, 3035ms total)
T0CE0 5079:321 JLINK_GetNumBPUnits(Type = 0xFFFFFF00)  returns 0x06 (0000ms, 3035ms total)
T0CE0 5079:321 JLINK_GetNumBPUnits(Type = 0xF0)  returns 0x2000 (0000ms, 3035ms total)
T0CE0 5079:321 JLINK_GetNumWPUnits()  returns 0x04 (0000ms, 3035ms total)
T0CE0 5079:321 JLINK_GetSpeed()  returns 0xFA0 (0000ms, 3035ms total)
T0CE0 5079:321 JLINK_ReadMemU32(0xE000E004, 0x0001 Items, ...) -- CPU_ReadMem(4 bytes @ 0xE000E004) - Data: 02 00 00 00  returns 1 (0000ms, 3035ms total)
T0CE0 5079:321 JLINK_ReadMemU32(0xE000E004, 0x0001 Items, ...) -- CPU_ReadMem(4 bytes @ 0xE000E004) - Data: 02 00 00 00  returns 1 (0000ms, 3035ms total)
T0CE0 5079:321 JLINK_WriteMemEx(0xE0001000, 0x001C Bytes, ..., Flags = 0x02000004) - Data: 01 00 00 00 00 00 00 00 00 00 00 00 00 00 00 00 ... -- CPU_WriteMem(28 bytes @ 0xE0001000)  returns 0x1C (0001ms, 3036ms total)
T0CE0 5079:322 JLINK_ReadReg(R15 (PC))  returns 0x080002C0 (0000ms, 3036ms total)
T0CE0 5079:322 JLINK_ReadReg(XPSR)  returns 0x01000000 (0000ms, 3036ms total)
T0CE0 5079:333 JLINK_ReadMemEx(0xE0001004, 0x0004 Bytes, ..., Flags = 0x02000000) - Data: 00 00 00 00  returns 0x04 (0000ms, 3036ms total)
T0CE0 5079:403 JLINK_SetResetType(JLINKARM_CM3_RESET_TYPE_NORMAL)  returns JLINKARM_CM3_RESET_TYPE_NORMAL (0000ms, 3036ms total)
T0CE0 5079:403 JLINK_Reset() -- CPU_WriteMem(4 bytes @ 0xE000EDF0) -- CPU_WriteMem(4 bytes @ 0xE000EDFC)Reset: Halt core after reset via DEMCR.VC_CORERESET. >0x35 TIF>Reset: Reset device via AIRCR.SYSRESETREQ. -- CPU_WriteMem(4 bytes @ 0xE000ED0C) >0x0D TIF> >0x28 TIF> -- CPU_ReadMem(4 bytes @ 0xE000EDF0) -- CPU_ReadMem(4 bytes @ 0xE000EDF0) -- CPU_WriteMem(4 bytes @ 0xE000EDF0) -- CPU_WriteMem(4 bytes @ 0xE000EDFC) -- CPU_ReadMem(4 bytes @ 0xE000EDF0) -- CPU_WriteMem(4 bytes @ 0xE0002000)
 -- CPU_ReadMem(4 bytes @ 0xE000EDFC) -- CPU_ReadMem(4 bytes @ 0xE0001000) (0064ms, 3100ms total)
T0CE0 5079:467 JLINK_ReadReg(R15 (PC))  returns 0x080002C0 (0000ms, 3100ms total)
T0CE0 5079:467 JLINK_ReadReg(XPSR)  returns 0x01000000 (0000ms, 3100ms total)
T0CE0 5079:467 JLINK_ReadReg(R0)  returns 0x00000000 (0000ms, 3100ms total)
T0CE0 5079:467 JLINK_ReadReg(R1)  returns 0x00000000 (0000ms, 3100ms total)
T0CE0 5079:467 JLINK_ReadReg(R2)  returns 0x00000000 (0000ms, 3100ms total)
T0CE0 5079:467 JLINK_ReadReg(R3)  returns 0x00000000 (0000ms, 3100ms total)
T0CE0 5079:467 JLINK_ReadReg(R4)  returns 0x00000000 (0000ms, 3100ms total)
T0CE0 5079:467 JLINK_ReadMemU32(0xE0001004, 0x0001 Items, ...) - Data: 00 00 00 00  returns 1 (0000ms, 3100ms total)
T0CE0 5079:468 JLINK_ReadMemEx(0x080002C0, 0x003C Bytes, ..., Flags = 0x02000000) -- CPU_ReadMem(64 bytes @ 0x080002C0) -- Updating C cache (64 bytes @ 0x080002C0) -- Read from C cache (60 bytes @ 0x080002C0) - Data: 09 48 80 47 09 48 00 47 FE E7 FE E7 FE E7 FE E7 ...  returns 0x3C (0000ms, 3100ms total)
T0CE0 5079:468 JLINK_ReadMemEx(0x080002C0, 0x0002 Bytes, ..., Flags = 0x02000000) -- Read from C cache (2 bytes @ 0x080002C0) - Data: 09 48  returns 0x02 (0000ms, 3100ms total)
T0CE0 5079:468 JLINK_ReadMemEx(0x080002C2, 0x0002 Bytes, ..., Flags = 0x02000000) -- Read from C cache (2 bytes @ 0x080002C2) - Data: 80 47  returns 0x02 (0000ms, 3100ms total)
T0CE0 5079:468 JLINK_ReadMemEx(0x080002C2, 0x0002 Bytes, ..., Flags = 0x02000000) -- Read from C cache (2 bytes @ 0x080002C2) - Data: 80 47  returns 0x02 (0000ms, 3100ms total)
T0CE0 5079:468 JLINK_ReadMemEx(0x080002C4, 0x003C Bytes, ..., Flags = 0x02000000) -- Read from C cache (60 bytes @ 0x080002C4) - Data: 09 48 00 47 FE E7 FE E7 FE E7 FE E7 FE E7 FE E7 ...  returns 0x3C (0000ms, 3100ms total)
T0CE0 5079:468 JLINK_ReadMemEx(0x080002C4, 0x0002 Bytes, ..., Flags = 0x02000000) -- Read from C cache (2 bytes @ 0x080002C4) - Data: 09 48  returns 0x02 (0000ms, 3100ms total)
T39F8 5081:764 JLINK_ReadMemEx(0x080002C0, 0x0002 Bytes, ..., Flags = 0x02000000) -- Read from C cache (2 bytes @ 0x080002C0) - Data: 09 48  returns 0x02 (0001ms, 3101ms total)
T39F8 5081:765 JLINK_SetBPEx(Addr = 0x08000228, Type = 0xFFFFFFF2)  returns 0x00000001 (0000ms, 3101ms total)
T39F8 5081:765 JLINK_Go() -- CPU_WriteMem(4 bytes @ 0xE0002000) -- CPU_ReadMem(4 bytes @ 0xE0001000) -- CPU_WriteMem(4 bytes @ 0xE0002008) -- CPU_WriteMem(4 bytes @ 0xE000200C) -- CPU_WriteMem(4 bytes @ 0xE0002010) -- CPU_WriteMem(4 bytes @ 0xE0002014) -- CPU_WriteMem(4 bytes @ 0xE0002018) -- CPU_WriteMem(4 bytes @ 0xE000201C) -- CPU_WriteMem(4 bytes @ 0xE0001004) (0002ms, 3103ms total)
T39F8 5081:868 JLINK_IsHalted()  returns TRUE (0001ms, 3104ms total)
T39F8 5081:869 JLINK_Halt()  returns 0x00 (0000ms, 3103ms total)
T39F8 5081:869 JLINK_IsHalted()  returns TRUE (0000ms, 3103ms total)
T39F8 5081:869 JLINK_IsHalted()  returns TRUE (0000ms, 3103ms total)
T39F8 5081:870 JLINK_IsHalted()  returns TRUE (0000ms, 3103ms total)
T39F8 5081:870 JLINK_ReadReg(R15 (PC))  returns 0x08000228 (0000ms, 3103ms total)
T39F8 5081:870 JLINK_ReadReg(XPSR)  returns 0x21000000 (0000ms, 3103ms total)
T39F8 5081:870 JLINK_ClrBPEx(BPHandle = 0x00000001)  returns 0x00 (0000ms, 3103ms total)
T39F8 5081:870 JLINK_ReadMemU32(0xE000ED30, 0x0001 Items, ...) -- CPU_ReadMem(4 bytes @ 0xE000ED30) - Data: 02 00 00 00  returns 1 (0000ms, 3103ms total)
T39F8 5081:870 JLINK_ReadMemU32(0xE0001028, 0x0001 Items, ...) -- CPU_ReadMem(4 bytes @ 0xE0001028) - Data: 00 00 00 00  returns 1 (0000ms, 3103ms total)
T39F8 5081:870 JLINK_ReadMemU32(0xE0001038, 0x0001 Items, ...) -- CPU_ReadMem(4 bytes @ 0xE0001038) - Data: 00 02 00 00  returns 1 (0000ms, 3103ms total)
T39F8 5081:870 JLINK_ReadMemU32(0xE0001048, 0x0001 Items, ...) -- CPU_ReadMem(4 bytes @ 0xE0001048) - Data: 00 00 00 00  returns 1 (0001ms, 3104ms total)
T39F8 5081:871 JLINK_ReadMemU32(0xE0001058, 0x0001 Items, ...) -- CPU_ReadMem(4 bytes @ 0xE0001058) - Data: 00 00 00 00  returns 1 (0000ms, 3104ms total)
T39F8 5081:871 JLINK_ReadReg(R0)  returns 0x20000110 (0000ms, 3104ms total)
T39F8 5081:871 JLINK_ReadReg(R1)  returns 0x20000310 (0000ms, 3104ms total)
T39F8 5081:871 JLINK_ReadReg(R2)  returns 0x20000310 (0000ms, 3104ms total)
T39F8 5081:871 JLINK_ReadReg(R3)  returns 0x20000310 (0000ms, 3104ms total)
T39F8 5081:871 JLINK_ReadReg(R4)  returns 0x00000000 (0000ms, 3104ms total)
T39F8 5081:871 JLINK_ReadReg(R5)  returns 0x200000B0 (0000ms, 3104ms total)
T39F8 5081:871 JLINK_ReadReg(R6)  returns 0x00000000 (0000ms, 3104ms total)
T39F8 5081:871 JLINK_ReadReg(R7)  returns 0x00000000 (0000ms, 3104ms total)
T39F8 5081:871 JLINK_ReadReg(R8)  returns 0x00000000 (0000ms, 3104ms total)
T39F8 5081:871 JLINK_ReadReg(R9)  returns 0x00000000 (0000ms, 3104ms total)
T39F8 5081:871 JLINK_ReadReg(R10)  returns 0x08001E38 (0000ms, 3104ms total)
T39F8 5081:871 JLINK_ReadReg(R11)  returns 0x00000000 (0000ms, 3104ms total)
T39F8 5081:871 JLINK_ReadReg(R12)  returns 0x200000F0 (0000ms, 3104ms total)
T39F8 5081:871 JLINK_ReadReg(R13 (SP))  returns 0x20000710 (0000ms, 3104ms total)
T39F8 5081:871 JLINK_ReadReg(R14)  returns 0x08000217 (0000ms, 3104ms total)
T39F8 5081:872 JLINK_ReadReg(R15 (PC))  returns 0x08000228 (0000ms, 3105ms total)
T39F8 5081:872 JLINK_ReadReg(XPSR)  returns 0x21000000 (0000ms, 3105ms total)
T39F8 5081:872 JLINK_ReadReg(MSP)  returns 0x20000710 (0000ms, 3105ms total)
T39F8 5081:872 JLINK_ReadReg(PSP)  returns 0x00000000 (0000ms, 3105ms total)
T39F8 5081:872 JLINK_ReadReg(CFBP)  returns 0x04000000 (0000ms, 3105ms total)
T39F8 5081:872 JLINK_ReadReg(FPSCR)  returns 0x03000000 (0003ms, 3108ms total)
T39F8 5081:875 JLINK_ReadReg(FPS0)  returns 0x00000000 (0000ms, 3108ms total)
T39F8 5081:875 JLINK_ReadReg(FPS1)  returns 0x00000000 (0000ms, 3108ms total)
T39F8 5081:875 JLINK_ReadReg(FPS2)  returns 0x00000000 (0000ms, 3108ms total)
T39F8 5081:875 JLINK_ReadReg(FPS3)  returns 0x00000000 (0000ms, 3108ms total)
T39F8 5081:875 JLINK_ReadReg(FPS4)  returns 0x00000000 (0000ms, 3108ms total)
T39F8 5081:875 JLINK_ReadReg(FPS5)  returns 0x00000000 (0000ms, 3108ms total)
T39F8 5081:875 JLINK_ReadReg(FPS6)  returns 0x00000000 (0000ms, 3108ms total)
T39F8 5081:875 JLINK_ReadReg(FPS7)  returns 0x00000000 (0000ms, 3108ms total)
T39F8 5081:875 JLINK_ReadReg(FPS8)  returns 0x00000000 (0000ms, 3108ms total)
T39F8 5081:875 JLINK_ReadReg(FPS9)  returns 0x00000000 (0000ms, 3108ms total)
T39F8 5081:875 JLINK_ReadReg(FPS10)  returns 0x00000000 (0000ms, 3108ms total)
T39F8 5081:875 JLINK_ReadReg(FPS11)  returns 0x00000000 (0000ms, 3108ms total)
T39F8 5081:875 JLINK_ReadReg(FPS12)  returns 0x00000000 (0000ms, 3108ms total)
T39F8 5081:875 JLINK_ReadReg(FPS13)  returns 0x00000000 (0000ms, 3108ms total)
T39F8 5081:875 JLINK_ReadReg(FPS14)  returns 0x00000000 (0000ms, 3108ms total)
T39F8 5081:875 JLINK_ReadReg(FPS15)  returns 0x00000000 (0000ms, 3108ms total)
T39F8 5081:875 JLINK_ReadReg(FPS16)  returns 0x00000000 (0000ms, 3108ms total)
T39F8 5081:875 JLINK_ReadReg(FPS17)  returns 0x00000000 (0000ms, 3108ms total)
T39F8 5081:875 JLINK_ReadReg(FPS18)  returns 0x00000000 (0000ms, 3108ms total)
T39F8 5081:875 JLINK_ReadReg(FPS19)  returns 0x00000000 (0000ms, 3108ms total)
T39F8 5081:875 JLINK_ReadReg(FPS20)  returns 0x00000000 (0000ms, 3108ms total)
T39F8 5081:875 JLINK_ReadReg(FPS21)  returns 0x00000000 (0000ms, 3108ms total)
T39F8 5081:875 JLINK_ReadReg(FPS22)  returns 0x00000000 (0000ms, 3108ms total)
T39F8 5081:875 JLINK_ReadReg(FPS23)  returns 0x00000000 (0000ms, 3108ms total)
T39F8 5081:875 JLINK_ReadReg(FPS24)  returns 0x00000000 (0000ms, 3108ms total)
T39F8 5081:875 JLINK_ReadReg(FPS25)  returns 0x00000000 (0000ms, 3108ms total)
T39F8 5081:875 JLINK_ReadReg(FPS26)  returns 0x00000000 (0000ms, 3108ms total)
T39F8 5081:875 JLINK_ReadReg(FPS27)  returns 0x00000000 (0000ms, 3108ms total)
T39F8 5081:875 JLINK_ReadReg(FPS28)  returns 0x00000000 (0000ms, 3108ms total)
T39F8 5081:875 JLINK_ReadReg(FPS29)  returns 0x00000000 (0000ms, 3108ms total)
T39F8 5081:875 JLINK_ReadReg(FPS30)  returns 0x00000000 (0000ms, 3108ms total)
T39F8 5081:875 JLINK_ReadReg(FPS31)  returns 0x00000000 (0000ms, 3108ms total)
T0CE0 5081:879 JLINK_ReadMemU32(0xE0001004, 0x0001 Items, ...) -- CPU_ReadMem(4 bytes @ 0xE0001004) - Data: 3D 2D 00 00  returns 1 (0001ms, 3109ms total)
T0CE0 5081:882 JLINK_ReadMemEx(0x08000228, 0x003C Bytes, ..., Flags = 0x02000000) -- CPU_ReadMem(128 bytes @ 0x08000200) -- Updating C cache (128 bytes @ 0x08000200) -- Read from C cache (60 bytes @ 0x08000228) - Data: 4F F4 A0 60 00 F0 3E FB 01 F0 33 FD 4F F4 16 50 ...  returns 0x3C (0001ms, 3110ms total)
T0CE0 5081:883 JLINK_ReadMemEx(0x08000228, 0x0002 Bytes, ..., Flags = 0x02000000) -- Read from C cache (2 bytes @ 0x08000228) - Data: 4F F4  returns 0x02 (0000ms, 3110ms total)
T0CE0 5081:883 JLINK_ReadMemEx(0x0800022A, 0x0002 Bytes, ..., Flags = 0x02000000) -- Read from C cache (2 bytes @ 0x0800022A) - Data: A0 60  returns 0x02 (0000ms, 3110ms total)
T0CE0 5081:883 JLINK_ReadMemEx(0x0800022C, 0x003C Bytes, ..., Flags = 0x02000000) -- Read from C cache (60 bytes @ 0x0800022C) - Data: 00 F0 3E FB 01 F0 33 FD 4F F4 16 50 00 F0 44 FA ...  returns 0x3C (0000ms, 3110ms total)
T0CE0 5081:883 JLINK_ReadMemEx(0x0800022C, 0x0002 Bytes, ..., Flags = 0x02000000) -- Read from C cache (2 bytes @ 0x0800022C) - Data: 00 F0  returns 0x02 (0000ms, 3110ms total)
T0CE0 5081:883 JLINK_ReadMemEx(0x0800022E, 0x0002 Bytes, ..., Flags = 0x02000000) -- Read from C cache (2 bytes @ 0x0800022E) - Data: 3E FB  returns 0x02 (0000ms, 3110ms total)
T0CE0 5081:883 JLINK_ReadMemEx(0x08000230, 0x003C Bytes, ..., Flags = 0x02000000) -- Read from C cache (60 bytes @ 0x08000230) - Data: 01 F0 33 FD 4F F4 16 50 00 F0 44 FA 00 F0 68 F9 ...  returns 0x3C (0000ms, 3110ms total)
T0CE0 5081:883 JLINK_ReadMemEx(0x08000230, 0x0002 Bytes, ..., Flags = 0x02000000) -- Read from C cache (2 bytes @ 0x08000230) - Data: 01 F0  returns 0x02 (0000ms, 3110ms total)
T0CE0 5081:883 JLINK_ReadMemEx(0x08000232, 0x0002 Bytes, ..., Flags = 0x02000000) -- Read from C cache (2 bytes @ 0x08000232) - Data: 33 FD  returns 0x02 (0000ms, 3110ms total)
T39F8 5084:000 JLINK_ReadMemEx(0x08000228, 0x0002 Bytes, ..., Flags = 0x02000000) -- Read from C cache (2 bytes @ 0x08000228) - Data: 4F F4  returns 0x02 (0000ms, 3110ms total)
T39F8 5084:000 JLINK_Step() -- Read from C cache (2 bytes @ 0x08000228) -- CPU_ReadMem(4 bytes @ 0xE000ED18) -- CPU_WriteMem(4 bytes @ 0xE000ED18) -- CPU_ReadMem(4 bytes @ 0xE000ED18) -- CPU_WriteMem(4 bytes @ 0xE000ED18) -- Read from C cache (2 bytes @ 0x0800022A) -- Simulated  returns 0x00 (0002ms, 3112ms total)
T39F8 5084:002 JLINK_ReadReg(R15 (PC))  returns 0x0800022C (0000ms, 3112ms total)
T39F8 5084:002 JLINK_ReadReg(XPSR)  returns 0x21000000 (0000ms, 3112ms total)
T39F8 5084:002 JLINK_ReadMemEx(0x0800022A, 0x0002 Bytes, ..., Flags = 0x02000000) -- Read from C cache (2 bytes @ 0x0800022A) - Data: A0 60  returns 0x02 (0000ms, 3112ms total)
T39F8 5084:002 JLINK_ReadMemEx(0x0800022C, 0x003C Bytes, ..., Flags = 0x02000000) -- Read from C cache (60 bytes @ 0x0800022C) - Data: 00 F0 3E FB 01 F0 33 FD 4F F4 16 50 00 F0 44 FA ...  returns 0x3C (0000ms, 3112ms total)
T39F8 5084:002 JLINK_ReadMemEx(0x0800022C, 0x0002 Bytes, ..., Flags = 0x02000000) -- Read from C cache (2 bytes @ 0x0800022C) - Data: 00 F0  returns 0x02 (0000ms, 3112ms total)
T39F8 5084:002 JLINK_SetBPEx(Addr = 0x08000230, Type = 0xFFFFFFF2)  returns 0x00000002 (0000ms, 3112ms total)
T39F8 5084:002 JLINK_Go() -- CPU_WriteMem(4 bytes @ 0xE0002000) -- CPU_ReadMem(4 bytes @ 0xE0001000) -- CPU_WriteMem(4 bytes @ 0xE0002008) -- CPU_WriteMem(4 bytes @ 0xE0001004) (0002ms, 3114ms total)
T39F8 5084:105 JLINK_IsHalted()  returns TRUE (0002ms, 3116ms total)
T39F8 5084:107 JLINK_Halt()  returns 0x00 (0000ms, 3114ms total)
T39F8 5084:107 JLINK_IsHalted()  returns TRUE (0000ms, 3114ms total)
T39F8 5084:107 JLINK_IsHalted()  returns TRUE (0000ms, 3114ms total)
T39F8 5084:107 JLINK_IsHalted()  returns TRUE (0000ms, 3114ms total)
T39F8 5084:107 JLINK_ReadReg(R15 (PC))  returns 0x08000230 (0000ms, 3114ms total)
T39F8 5084:107 JLINK_ReadReg(XPSR)  returns 0x21000000 (0000ms, 3114ms total)
T39F8 5084:107 JLINK_ClrBPEx(BPHandle = 0x00000002)  returns 0x00 (0000ms, 3114ms total)
T39F8 5084:107 JLINK_ReadMemU32(0xE000ED30, 0x0001 Items, ...) -- CPU_ReadMem(4 bytes @ 0xE000ED30) - Data: 02 00 00 00  returns 1 (0000ms, 3114ms total)
T39F8 5084:107 JLINK_ReadMemU32(0xE0001028, 0x0001 Items, ...) -- CPU_ReadMem(4 bytes @ 0xE0001028) - Data: 00 00 00 00  returns 1 (0001ms, 3115ms total)
T39F8 5084:108 JLINK_ReadMemU32(0xE0001038, 0x0001 Items, ...) -- CPU_ReadMem(4 bytes @ 0xE0001038) - Data: 00 02 00 00  returns 1 (0000ms, 3115ms total)
T39F8 5084:108 JLINK_ReadMemU32(0xE0001048, 0x0001 Items, ...) -- CPU_ReadMem(4 bytes @ 0xE0001048) - Data: 00 00 00 00  returns 1 (0000ms, 3115ms total)
T39F8 5084:108 JLINK_ReadMemU32(0xE0001058, 0x0001 Items, ...) -- CPU_ReadMem(4 bytes @ 0xE0001058) - Data: 00 00 00 00  returns 1 (0001ms, 3116ms total)
T39F8 5084:109 JLINK_ReadReg(R0)  returns 0x00000500 (0000ms, 3116ms total)
T39F8 5084:109 JLINK_ReadReg(R1)  returns 0x05FA0500 (0000ms, 3116ms total)
T39F8 5084:109 JLINK_ReadReg(R2)  returns 0xE000ED0C (0000ms, 3116ms total)
T39F8 5084:109 JLINK_ReadReg(R3)  returns 0x20000310 (0000ms, 3116ms total)
T39F8 5084:109 JLINK_ReadReg(R4)  returns 0x00000000 (0000ms, 3116ms total)
T39F8 5084:109 JLINK_ReadReg(R5)  returns 0x200000B0 (0000ms, 3116ms total)
T39F8 5084:109 JLINK_ReadReg(R6)  returns 0x00000000 (0000ms, 3116ms total)
T39F8 5084:109 JLINK_ReadReg(R7)  returns 0x00000000 (0000ms, 3116ms total)
T39F8 5084:109 JLINK_ReadReg(R8)  returns 0x00000000 (0000ms, 3116ms total)
T39F8 5084:109 JLINK_ReadReg(R9)  returns 0x00000000 (0000ms, 3116ms total)
T39F8 5084:109 JLINK_ReadReg(R10)  returns 0x08001E38 (0000ms, 3116ms total)
T39F8 5084:109 JLINK_ReadReg(R11)  returns 0x00000000 (0000ms, 3116ms total)
T39F8 5084:109 JLINK_ReadReg(R12)  returns 0x200000F0 (0000ms, 3116ms total)
T39F8 5084:109 JLINK_ReadReg(R13 (SP))  returns 0x20000710 (0000ms, 3116ms total)
T39F8 5084:109 JLINK_ReadReg(R14)  returns 0x08000231 (0000ms, 3116ms total)
T39F8 5084:109 JLINK_ReadReg(R15 (PC))  returns 0x08000230 (0000ms, 3116ms total)
T39F8 5084:109 JLINK_ReadReg(XPSR)  returns 0x21000000 (0000ms, 3116ms total)
T39F8 5084:109 JLINK_ReadReg(MSP)  returns 0x20000710 (0000ms, 3116ms total)
T39F8 5084:109 JLINK_ReadReg(PSP)  returns 0x00000000 (0000ms, 3116ms total)
T39F8 5084:109 JLINK_ReadReg(CFBP)  returns 0x04000000 (0000ms, 3116ms total)
T39F8 5084:109 JLINK_ReadReg(FPSCR)  returns 0x03000000 (0003ms, 3119ms total)
T39F8 5084:112 JLINK_ReadReg(FPS0)  returns 0x00000000 (0000ms, 3119ms total)
T39F8 5084:112 JLINK_ReadReg(FPS1)  returns 0x00000000 (0000ms, 3119ms total)
T39F8 5084:112 JLINK_ReadReg(FPS2)  returns 0x00000000 (0000ms, 3119ms total)
T39F8 5084:112 JLINK_ReadReg(FPS3)  returns 0x00000000 (0000ms, 3119ms total)
T39F8 5084:112 JLINK_ReadReg(FPS4)  returns 0x00000000 (0000ms, 3119ms total)
T39F8 5084:112 JLINK_ReadReg(FPS5)  returns 0x00000000 (0000ms, 3119ms total)
T39F8 5084:112 JLINK_ReadReg(FPS6)  returns 0x00000000 (0000ms, 3119ms total)
T39F8 5084:112 JLINK_ReadReg(FPS7)  returns 0x00000000 (0000ms, 3119ms total)
T39F8 5084:112 JLINK_ReadReg(FPS8)  returns 0x00000000 (0000ms, 3119ms total)
T39F8 5084:112 JLINK_ReadReg(FPS9)  returns 0x00000000 (0000ms, 3119ms total)
T39F8 5084:112 JLINK_ReadReg(FPS10)  returns 0x00000000 (0000ms, 3119ms total)
T39F8 5084:112 JLINK_ReadReg(FPS11)  returns 0x00000000 (0000ms, 3119ms total)
T39F8 5084:112 JLINK_ReadReg(FPS12)  returns 0x00000000 (0000ms, 3119ms total)
T39F8 5084:112 JLINK_ReadReg(FPS13)  returns 0x00000000 (0000ms, 3119ms total)
T39F8 5084:112 JLINK_ReadReg(FPS14)  returns 0x00000000 (0000ms, 3119ms total)
T39F8 5084:112 JLINK_ReadReg(FPS15)  returns 0x00000000 (0000ms, 3119ms total)
T39F8 5084:112 JLINK_ReadReg(FPS16)  returns 0x00000000 (0000ms, 3119ms total)
T39F8 5084:112 JLINK_ReadReg(FPS17)  returns 0x00000000 (0000ms, 3119ms total)
T39F8 5084:112 JLINK_ReadReg(FPS18)  returns 0x00000000 (0000ms, 3119ms total)
T39F8 5084:112 JLINK_ReadReg(FPS19)  returns 0x00000000 (0000ms, 3119ms total)
T39F8 5084:112 JLINK_ReadReg(FPS20)  returns 0x00000000 (0000ms, 3119ms total)
T39F8 5084:112 JLINK_ReadReg(FPS21)  returns 0x00000000 (0000ms, 3119ms total)
T39F8 5084:112 JLINK_ReadReg(FPS22)  returns 0x00000000 (0000ms, 3119ms total)
T39F8 5084:112 JLINK_ReadReg(FPS23)  returns 0x00000000 (0000ms, 3119ms total)
T39F8 5084:112 JLINK_ReadReg(FPS24)  returns 0x00000000 (0000ms, 3119ms total)
T39F8 5084:112 JLINK_ReadReg(FPS25)  returns 0x00000000 (0000ms, 3119ms total)
T39F8 5084:112 JLINK_ReadReg(FPS26)  returns 0x00000000 (0000ms, 3119ms total)
T39F8 5084:112 JLINK_ReadReg(FPS27)  returns 0x00000000 (0000ms, 3119ms total)
T39F8 5084:112 JLINK_ReadReg(FPS28)  returns 0x00000000 (0000ms, 3119ms total)
T39F8 5084:112 JLINK_ReadReg(FPS29)  returns 0x00000000 (0000ms, 3119ms total)
T39F8 5084:112 JLINK_ReadReg(FPS30)  returns 0x00000000 (0000ms, 3119ms total)
T39F8 5084:112 JLINK_ReadReg(FPS31)  returns 0x00000000 (0000ms, 3119ms total)
T0CE0 5084:113 JLINK_ReadMemU32(0xE0001004, 0x0001 Items, ...) -- CPU_ReadMem(4 bytes @ 0xE0001004) - Data: 57 2D 00 00  returns 1 (0001ms, 3120ms total)
T0CE0 5084:120 JLINK_ReadMemEx(0x08000230, 0x003C Bytes, ..., Flags = 0x02000000) -- CPU_ReadMem(128 bytes @ 0x08000200) -- Updating C cache (128 bytes @ 0x08000200) -- Read from C cache (60 bytes @ 0x08000230) - Data: 01 F0 33 FD 4F F4 16 50 00 F0 44 FA 00 F0 68 F9 ...  returns 0x3C (0001ms, 3121ms total)
T0CE0 5084:121 JLINK_ReadMemEx(0x08000230, 0x0002 Bytes, ..., Flags = 0x02000000) -- Read from C cache (2 bytes @ 0x08000230) - Data: 01 F0  returns 0x02 (0000ms, 3121ms total)
T0CE0 5084:121 JLINK_ReadMemEx(0x08000232, 0x0002 Bytes, ..., Flags = 0x02000000) -- Read from C cache (2 bytes @ 0x08000232) - Data: 33 FD  returns 0x02 (0000ms, 3121ms total)
T0CE0 5084:121 JLINK_ReadMemEx(0x08000234, 0x003C Bytes, ..., Flags = 0x02000000) -- Read from C cache (60 bytes @ 0x08000234) - Data: 4F F4 16 50 00 F0 44 FA 00 F0 68 F9 00 F0 EA F9 ...  returns 0x3C (0000ms, 3121ms total)
T0CE0 5084:121 JLINK_ReadMemEx(0x08000234, 0x0002 Bytes, ..., Flags = 0x02000000) -- Read from C cache (2 bytes @ 0x08000234) - Data: 4F F4  returns 0x02 (0000ms, 3121ms total)
T0CE0 5084:121 JLINK_ReadMemEx(0x08000236, 0x0002 Bytes, ..., Flags = 0x02000000) -- Read from C cache (2 bytes @ 0x08000236) - Data: 16 50  returns 0x02 (0000ms, 3121ms total)
T0CE0 5084:121 JLINK_ReadMemEx(0x08000238, 0x003C Bytes, ..., Flags = 0x02000000) -- Read from C cache (60 bytes @ 0x08000238) - Data: 00 F0 44 FA 00 F0 68 F9 00 F0 EA F9 00 F0 20 FA ...  returns 0x3C (0000ms, 3121ms total)
T0CE0 5084:121 JLINK_ReadMemEx(0x08000238, 0x0002 Bytes, ..., Flags = 0x02000000) -- Read from C cache (2 bytes @ 0x08000238) - Data: 00 F0  returns 0x02 (0000ms, 3121ms total)
T0CE0 5084:121 JLINK_ReadMemEx(0x0800023A, 0x0002 Bytes, ..., Flags = 0x02000000) -- Read from C cache (2 bytes @ 0x0800023A) - Data: 44 FA  returns 0x02 (0000ms, 3121ms total)
T39F8 5084:401 JLINK_ReadMemEx(0x08000230, 0x0002 Bytes, ..., Flags = 0x02000000) -- Read from C cache (2 bytes @ 0x08000230) - Data: 01 F0  returns 0x02 (0000ms, 3121ms total)
T39F8 5084:401 JLINK_SetBPEx(Addr = 0x08000234, Type = 0xFFFFFFF2)  returns 0x00000003 (0000ms, 3121ms total)
T39F8 5084:401 JLINK_Go() -- CPU_WriteMem(4 bytes @ 0xE0002000) -- CPU_ReadMem(4 bytes @ 0xE0001000) -- CPU_WriteMem(4 bytes @ 0xE0002008) (0001ms, 3122ms total)
T39F8 5084:503 JLINK_IsHalted()  returns TRUE (0002ms, 3124ms total)
T39F8 5084:505 JLINK_Halt()  returns 0x00 (0000ms, 3122ms total)
T39F8 5084:505 JLINK_IsHalted()  returns TRUE (0000ms, 3122ms total)
T39F8 5084:505 JLINK_IsHalted()  returns TRUE (0000ms, 3122ms total)
T39F8 5084:505 JLINK_IsHalted()  returns TRUE (0000ms, 3122ms total)
T39F8 5084:505 JLINK_ReadReg(R15 (PC))  returns 0x08000234 (0000ms, 3122ms total)
T39F8 5084:505 JLINK_ReadReg(XPSR)  returns 0x21000000 (0000ms, 3122ms total)
T39F8 5084:505 JLINK_ClrBPEx(BPHandle = 0x00000003)  returns 0x00 (0000ms, 3122ms total)
T39F8 5084:505 JLINK_ReadMemU32(0xE000ED30, 0x0001 Items, ...) -- CPU_ReadMem(4 bytes @ 0xE000ED30) - Data: 02 00 00 00  returns 1 (0000ms, 3122ms total)
T39F8 5084:505 JLINK_ReadMemU32(0xE0001028, 0x0001 Items, ...) -- CPU_ReadMem(4 bytes @ 0xE0001028) - Data: 00 00 00 00  returns 1 (0001ms, 3123ms total)
T39F8 5084:506 JLINK_ReadMemU32(0xE0001038, 0x0001 Items, ...) -- CPU_ReadMem(4 bytes @ 0xE0001038) - Data: 00 02 00 00  returns 1 (0000ms, 3123ms total)
T39F8 5084:506 JLINK_ReadMemU32(0xE0001048, 0x0001 Items, ...) -- CPU_ReadMem(4 bytes @ 0xE0001048) - Data: 00 00 00 00  returns 1 (0000ms, 3123ms total)
T39F8 5084:506 JLINK_ReadMemU32(0xE0001058, 0x0001 Items, ...) -- CPU_ReadMem(4 bytes @ 0xE0001058) - Data: 00 00 00 00  returns 1 (0001ms, 3124ms total)
T39F8 5084:507 JLINK_ReadReg(R0)  returns 0x00005208 (0000ms, 3124ms total)
T39F8 5084:507 JLINK_ReadReg(R1)  returns 0x2000002E (0000ms, 3124ms total)
T39F8 5084:507 JLINK_ReadReg(R2)  returns 0xE000E000 (0000ms, 3124ms total)
T39F8 5084:507 JLINK_ReadReg(R3)  returns 0x20000310 (0000ms, 3124ms total)
T39F8 5084:507 JLINK_ReadReg(R4)  returns 0x00000000 (0000ms, 3124ms total)
T39F8 5084:507 JLINK_ReadReg(R5)  returns 0x200000B0 (0000ms, 3124ms total)
T39F8 5084:507 JLINK_ReadReg(R6)  returns 0x00000000 (0000ms, 3124ms total)
T39F8 5084:507 JLINK_ReadReg(R7)  returns 0x00000000 (0000ms, 3124ms total)
T39F8 5084:507 JLINK_ReadReg(R8)  returns 0x00000000 (0000ms, 3124ms total)
T39F8 5084:507 JLINK_ReadReg(R9)  returns 0x00000000 (0000ms, 3124ms total)
T39F8 5084:507 JLINK_ReadReg(R10)  returns 0x08001E38 (0000ms, 3124ms total)
T39F8 5084:507 JLINK_ReadReg(R11)  returns 0x00000000 (0000ms, 3124ms total)
T39F8 5084:507 JLINK_ReadReg(R12)  returns 0x200000F0 (0000ms, 3124ms total)
T39F8 5084:507 JLINK_ReadReg(R13 (SP))  returns 0x20000710 (0000ms, 3124ms total)
T39F8 5084:507 JLINK_ReadReg(R14)  returns 0x08001CA5 (0000ms, 3124ms total)
T39F8 5084:507 JLINK_ReadReg(R15 (PC))  returns 0x08000234 (0000ms, 3124ms total)
T39F8 5084:507 JLINK_ReadReg(XPSR)  returns 0x21000000 (0000ms, 3124ms total)
T39F8 5084:507 JLINK_ReadReg(MSP)  returns 0x20000710 (0000ms, 3124ms total)
T39F8 5084:507 JLINK_ReadReg(PSP)  returns 0x00000000 (0000ms, 3124ms total)
T39F8 5084:507 JLINK_ReadReg(CFBP)  returns 0x04000000 (0000ms, 3124ms total)
T39F8 5084:507 JLINK_ReadReg(FPSCR)  returns 0x03000000 (0003ms, 3127ms total)
T39F8 5084:510 JLINK_ReadReg(FPS0)  returns 0x00000000 (0000ms, 3127ms total)
T39F8 5084:510 JLINK_ReadReg(FPS1)  returns 0x00000000 (0000ms, 3127ms total)
T39F8 5084:510 JLINK_ReadReg(FPS2)  returns 0x00000000 (0000ms, 3127ms total)
T39F8 5084:510 JLINK_ReadReg(FPS3)  returns 0x00000000 (0000ms, 3127ms total)
T39F8 5084:510 JLINK_ReadReg(FPS4)  returns 0x00000000 (0000ms, 3127ms total)
T39F8 5084:510 JLINK_ReadReg(FPS5)  returns 0x00000000 (0000ms, 3127ms total)
T39F8 5084:510 JLINK_ReadReg(FPS6)  returns 0x00000000 (0000ms, 3127ms total)
T39F8 5084:510 JLINK_ReadReg(FPS7)  returns 0x00000000 (0000ms, 3127ms total)
T39F8 5084:510 JLINK_ReadReg(FPS8)  returns 0x00000000 (0000ms, 3127ms total)
T39F8 5084:510 JLINK_ReadReg(FPS9)  returns 0x00000000 (0000ms, 3127ms total)
T39F8 5084:510 JLINK_ReadReg(FPS10)  returns 0x00000000 (0000ms, 3127ms total)
T39F8 5084:510 JLINK_ReadReg(FPS11)  returns 0x00000000 (0000ms, 3127ms total)
T39F8 5084:510 JLINK_ReadReg(FPS12)  returns 0x00000000 (0000ms, 3127ms total)
T39F8 5084:510 JLINK_ReadReg(FPS13)  returns 0x00000000 (0000ms, 3127ms total)
T39F8 5084:510 JLINK_ReadReg(FPS14)  returns 0x00000000 (0000ms, 3127ms total)
T39F8 5084:510 JLINK_ReadReg(FPS15)  returns 0x00000000 (0000ms, 3127ms total)
T39F8 5084:510 JLINK_ReadReg(FPS16)  returns 0x00000000 (0000ms, 3127ms total)
T39F8 5084:510 JLINK_ReadReg(FPS17)  returns 0x00000000 (0000ms, 3127ms total)
T39F8 5084:510 JLINK_ReadReg(FPS18)  returns 0x00000000 (0000ms, 3127ms total)
T39F8 5084:510 JLINK_ReadReg(FPS19)  returns 0x00000000 (0000ms, 3127ms total)
T39F8 5084:510 JLINK_ReadReg(FPS20)  returns 0x00000000 (0000ms, 3127ms total)
T39F8 5084:511 JLINK_ReadReg(FPS21)  returns 0x00000000 (0000ms, 3127ms total)
T39F8 5084:511 JLINK_ReadReg(FPS22)  returns 0x00000000 (0000ms, 3127ms total)
T39F8 5084:511 JLINK_ReadReg(FPS23)  returns 0x00000000 (0000ms, 3127ms total)
T39F8 5084:511 JLINK_ReadReg(FPS24)  returns 0x00000000 (0000ms, 3127ms total)
T39F8 5084:511 JLINK_ReadReg(FPS25)  returns 0x00000000 (0000ms, 3127ms total)
T39F8 5084:511 JLINK_ReadReg(FPS26)  returns 0x00000000 (0000ms, 3127ms total)
T39F8 5084:511 JLINK_ReadReg(FPS27)  returns 0x00000000 (0000ms, 3127ms total)
T39F8 5084:511 JLINK_ReadReg(FPS28)  returns 0x00000000 (0000ms, 3127ms total)
T39F8 5084:511 JLINK_ReadReg(FPS29)  returns 0x00000000 (0000ms, 3127ms total)
T39F8 5084:511 JLINK_ReadReg(FPS30)  returns 0x00000000 (0000ms, 3127ms total)
T39F8 5084:511 JLINK_ReadReg(FPS31)  returns 0x00000000 (0000ms, 3127ms total)
T0CE0 5084:511 JLINK_ReadMemU32(0xE0001004, 0x0001 Items, ...) -- CPU_ReadMem(4 bytes @ 0xE0001004) - Data: A0 2D 00 00  returns 1 (0000ms, 3127ms total)
T0CE0 5084:516 JLINK_ReadMemEx(0x08000230, 0x003C Bytes, ..., Flags = 0x02000000) -- CPU_ReadMem(128 bytes @ 0x08000200) -- Updating C cache (128 bytes @ 0x08000200) -- Read from C cache (60 bytes @ 0x08000230) - Data: 01 F0 33 FD 4F F4 16 50 00 F0 44 FA 00 F0 68 F9 ...  returns 0x3C (0001ms, 3128ms total)
T0CE0 5084:517 JLINK_ReadMemEx(0x08000230, 0x0002 Bytes, ..., Flags = 0x02000000) -- Read from C cache (2 bytes @ 0x08000230) - Data: 01 F0  returns 0x02 (0000ms, 3128ms total)
T0CE0 5084:517 JLINK_ReadMemEx(0x08000232, 0x0002 Bytes, ..., Flags = 0x02000000) -- Read from C cache (2 bytes @ 0x08000232) - Data: 33 FD  returns 0x02 (0000ms, 3128ms total)
T0CE0 5084:518 JLINK_ReadMemEx(0x08000234, 0x003C Bytes, ..., Flags = 0x02000000) -- Read from C cache (60 bytes @ 0x08000234) - Data: 4F F4 16 50 00 F0 44 FA 00 F0 68 F9 00 F0 EA F9 ...  returns 0x3C (0000ms, 3128ms total)
T0CE0 5084:518 JLINK_ReadMemEx(0x08000234, 0x0002 Bytes, ..., Flags = 0x02000000) -- Read from C cache (2 bytes @ 0x08000234) - Data: 4F F4  returns 0x02 (0000ms, 3128ms total)
T0CE0 5084:518 JLINK_ReadMemEx(0x08000236, 0x0002 Bytes, ..., Flags = 0x02000000) -- Read from C cache (2 bytes @ 0x08000236) - Data: 16 50  returns 0x02 (0000ms, 3128ms total)
T0CE0 5084:518 JLINK_ReadMemEx(0x08000238, 0x003C Bytes, ..., Flags = 0x02000000) -- Read from C cache (60 bytes @ 0x08000238) - Data: 00 F0 44 FA 00 F0 68 F9 00 F0 EA F9 00 F0 20 FA ...  returns 0x3C (0000ms, 3128ms total)
T0CE0 5084:518 JLINK_ReadMemEx(0x08000238, 0x0002 Bytes, ..., Flags = 0x02000000) -- Read from C cache (2 bytes @ 0x08000238) - Data: 00 F0  returns 0x02 (0000ms, 3128ms total)
T0CE0 5084:518 JLINK_ReadMemEx(0x0800023A, 0x0002 Bytes, ..., Flags = 0x02000000) -- Read from C cache (2 bytes @ 0x0800023A) - Data: 44 FA  returns 0x02 (0000ms, 3128ms total)
T39F8 5084:732 JLINK_ReadMemEx(0x08000234, 0x0002 Bytes, ..., Flags = 0x02000000) -- Read from C cache (2 bytes @ 0x08000234) - Data: 4F F4  returns 0x02 (0000ms, 3128ms total)
T39F8 5084:732 JLINK_Step() -- Read from C cache (2 bytes @ 0x08000234) -- Read from C cache (2 bytes @ 0x08000236) -- Simulated  returns 0x00 (0000ms, 3128ms total)
T39F8 5084:732 JLINK_ReadReg(R15 (PC))  returns 0x08000238 (0000ms, 3128ms total)
T39F8 5084:732 JLINK_ReadReg(XPSR)  returns 0x21000000 (0000ms, 3128ms total)
T39F8 5084:732 JLINK_ReadMemEx(0x08000236, 0x0002 Bytes, ..., Flags = 0x02000000) -- Read from C cache (2 bytes @ 0x08000236) - Data: 16 50  returns 0x02 (0000ms, 3128ms total)
T39F8 5084:732 JLINK_ReadMemEx(0x08000238, 0x003C Bytes, ..., Flags = 0x02000000) -- Read from C cache (60 bytes @ 0x08000238) - Data: 00 F0 44 FA 00 F0 68 F9 00 F0 EA F9 00 F0 20 FA ...  returns 0x3C (0000ms, 3128ms total)
T39F8 5084:732 JLINK_ReadMemEx(0x08000238, 0x0002 Bytes, ..., Flags = 0x02000000) -- Read from C cache (2 bytes @ 0x08000238) - Data: 00 F0  returns 0x02 (0000ms, 3128ms total)
T39F8 5084:733 JLINK_SetBPEx(Addr = 0x0800023C, Type = 0xFFFFFFF2)  returns 0x00000004 (0000ms, 3128ms total)
T39F8 5084:733 JLINK_Go() -- CPU_WriteMem(4 bytes @ 0xE0002000) -- CPU_ReadMem(4 bytes @ 0xE0001000) -- CPU_WriteMem(4 bytes @ 0xE0002008) -- CPU_WriteMem(4 bytes @ 0xE0001004) (0002ms, 3130ms total)
T39F8 5084:835 JLINK_IsHalted()  returns TRUE (0002ms, 3132ms total)
T39F8 5084:837 JLINK_Halt()  returns 0x00 (0000ms, 3130ms total)
T39F8 5084:837 JLINK_IsHalted()  returns TRUE (0000ms, 3130ms total)
T39F8 5084:837 JLINK_IsHalted()  returns TRUE (0000ms, 3130ms total)
T39F8 5084:837 JLINK_IsHalted()  returns TRUE (0000ms, 3130ms total)
T39F8 5084:837 JLINK_ReadReg(R15 (PC))  returns 0x0800023C (0000ms, 3130ms total)
T39F8 5084:837 JLINK_ReadReg(XPSR)  returns 0x01000000 (0000ms, 3130ms total)
T39F8 5084:837 JLINK_ClrBPEx(BPHandle = 0x00000004)  returns 0x00 (0000ms, 3130ms total)
T39F8 5084:837 JLINK_ReadMemU32(0xE000ED30, 0x0001 Items, ...) -- CPU_ReadMem(4 bytes @ 0xE000ED30) - Data: 02 00 00 00  returns 1 (0000ms, 3130ms total)
T39F8 5084:837 JLINK_ReadMemU32(0xE0001028, 0x0001 Items, ...) -- CPU_ReadMem(4 bytes @ 0xE0001028) - Data: 00 00 00 00  returns 1 (0000ms, 3130ms total)
T39F8 5084:837 JLINK_ReadMemU32(0xE0001038, 0x0001 Items, ...) -- CPU_ReadMem(4 bytes @ 0xE0001038) - Data: 00 02 00 00  returns 1 (0001ms, 3131ms total)
T39F8 5084:838 JLINK_ReadMemU32(0xE0001048, 0x0001 Items, ...) -- CPU_ReadMem(4 bytes @ 0xE0001048) - Data: 00 00 00 00  returns 1 (0000ms, 3131ms total)
T39F8 5084:838 JLINK_ReadMemU32(0xE0001058, 0x0001 Items, ...) -- CPU_ReadMem(4 bytes @ 0xE0001058) - Data: 00 00 00 00  returns 1 (0001ms, 3132ms total)
T39F8 5084:839 JLINK_ReadReg(R0)  returns 0x200006EC (0000ms, 3132ms total)
T39F8 5084:839 JLINK_ReadReg(R1)  returns 0x000000F0 (0000ms, 3132ms total)
T39F8 5084:839 JLINK_ReadReg(R2)  returns 0x00000003 (0000ms, 3132ms total)
T39F8 5084:839 JLINK_ReadReg(R3)  returns 0x00000002 (0000ms, 3132ms total)
T39F8 5084:839 JLINK_ReadReg(R4)  returns 0x00000000 (0000ms, 3132ms total)
T39F8 5084:839 JLINK_ReadReg(R5)  returns 0x200000B0 (0000ms, 3132ms total)
T39F8 5084:839 JLINK_ReadReg(R6)  returns 0x00000000 (0000ms, 3132ms total)
T39F8 5084:839 JLINK_ReadReg(R7)  returns 0x00000000 (0000ms, 3132ms total)
T39F8 5084:839 JLINK_ReadReg(R8)  returns 0x00000000 (0000ms, 3132ms total)
T39F8 5084:839 JLINK_ReadReg(R9)  returns 0x00000000 (0000ms, 3132ms total)
T39F8 5084:839 JLINK_ReadReg(R10)  returns 0x08001E38 (0000ms, 3132ms total)
T39F8 5084:839 JLINK_ReadReg(R11)  returns 0x00000000 (0000ms, 3132ms total)
T39F8 5084:839 JLINK_ReadReg(R12)  returns 0x00000150 (0000ms, 3132ms total)
T39F8 5084:839 JLINK_ReadReg(R13 (SP))  returns 0x20000710 (0000ms, 3132ms total)
T39F8 5084:839 JLINK_ReadReg(R14)  returns 0x0800076D (0000ms, 3132ms total)
T39F8 5084:839 JLINK_ReadReg(R15 (PC))  returns 0x0800023C (0000ms, 3132ms total)
T39F8 5084:839 JLINK_ReadReg(XPSR)  returns 0x01000000 (0000ms, 3132ms total)
T39F8 5084:839 JLINK_ReadReg(MSP)  returns 0x20000710 (0000ms, 3132ms total)
T39F8 5084:839 JLINK_ReadReg(PSP)  returns 0x00000000 (0000ms, 3132ms total)
T39F8 5084:839 JLINK_ReadReg(CFBP)  returns 0x04000000 (0000ms, 3132ms total)
T39F8 5084:839 JLINK_ReadReg(FPSCR)  returns 0x03000000 (0003ms, 3135ms total)
T39F8 5084:842 JLINK_ReadReg(FPS0)  returns 0x00000000 (0000ms, 3135ms total)
T39F8 5084:842 JLINK_ReadReg(FPS1)  returns 0x00000000 (0000ms, 3135ms total)
T39F8 5084:842 JLINK_ReadReg(FPS2)  returns 0x00000000 (0000ms, 3135ms total)
T39F8 5084:842 JLINK_ReadReg(FPS3)  returns 0x00000000 (0000ms, 3135ms total)
T39F8 5084:842 JLINK_ReadReg(FPS4)  returns 0x00000000 (0000ms, 3135ms total)
T39F8 5084:842 JLINK_ReadReg(FPS5)  returns 0x00000000 (0000ms, 3135ms total)
T39F8 5084:842 JLINK_ReadReg(FPS6)  returns 0x00000000 (0000ms, 3135ms total)
T39F8 5084:842 JLINK_ReadReg(FPS7)  returns 0x00000000 (0000ms, 3135ms total)
T39F8 5084:842 JLINK_ReadReg(FPS8)  returns 0x00000000 (0000ms, 3135ms total)
T39F8 5084:842 JLINK_ReadReg(FPS9)  returns 0x00000000 (0000ms, 3135ms total)
T39F8 5084:842 JLINK_ReadReg(FPS10)  returns 0x00000000 (0000ms, 3135ms total)
T39F8 5084:842 JLINK_ReadReg(FPS11)  returns 0x00000000 (0000ms, 3135ms total)
T39F8 5084:842 JLINK_ReadReg(FPS12)  returns 0x00000000 (0000ms, 3135ms total)
T39F8 5084:842 JLINK_ReadReg(FPS13)  returns 0x00000000 (0000ms, 3135ms total)
T39F8 5084:842 JLINK_ReadReg(FPS14)  returns 0x00000000 (0000ms, 3135ms total)
T39F8 5084:842 JLINK_ReadReg(FPS15)  returns 0x00000000 (0000ms, 3135ms total)
T39F8 5084:842 JLINK_ReadReg(FPS16)  returns 0x00000000 (0000ms, 3135ms total)
T39F8 5084:842 JLINK_ReadReg(FPS17)  returns 0x00000000 (0000ms, 3135ms total)
T39F8 5084:842 JLINK_ReadReg(FPS18)  returns 0x00000000 (0000ms, 3135ms total)
T39F8 5084:842 JLINK_ReadReg(FPS19)  returns 0x00000000 (0000ms, 3135ms total)
T39F8 5084:842 JLINK_ReadReg(FPS20)  returns 0x00000000 (0000ms, 3135ms total)
T39F8 5084:842 JLINK_ReadReg(FPS21)  returns 0x00000000 (0000ms, 3135ms total)
T39F8 5084:842 JLINK_ReadReg(FPS22)  returns 0x00000000 (0000ms, 3135ms total)
T39F8 5084:842 JLINK_ReadReg(FPS23)  returns 0x00000000 (0000ms, 3135ms total)
T39F8 5084:842 JLINK_ReadReg(FPS24)  returns 0x00000000 (0000ms, 3135ms total)
T39F8 5084:842 JLINK_ReadReg(FPS25)  returns 0x00000000 (0000ms, 3135ms total)
T39F8 5084:842 JLINK_ReadReg(FPS26)  returns 0x00000000 (0000ms, 3135ms total)
T39F8 5084:842 JLINK_ReadReg(FPS27)  returns 0x00000000 (0000ms, 3135ms total)
T39F8 5084:842 JLINK_ReadReg(FPS28)  returns 0x00000000 (0000ms, 3135ms total)
T39F8 5084:842 JLINK_ReadReg(FPS29)  returns 0x00000000 (0000ms, 3135ms total)
T39F8 5084:842 JLINK_ReadReg(FPS30)  returns 0x00000000 (0001ms, 3136ms total)
T39F8 5084:843 JLINK_ReadReg(FPS31)  returns 0x00000000 (0000ms, 3136ms total)
T0CE0 5084:843 JLINK_ReadMemU32(0xE0001004, 0x0001 Items, ...) -- CPU_ReadMem(4 bytes @ 0xE0001004) - Data: 81 32 00 00  returns 1 (0000ms, 3136ms total)
T0CE0 5084:847 JLINK_ReadMemEx(0x0800023C, 0x003C Bytes, ..., Flags = 0x02000000) -- CPU_ReadMem(128 bytes @ 0x08000200) -- Updating C cache (128 bytes @ 0x08000200) -- Read from C cache (60 bytes @ 0x0800023C) - Data: 00 F0 68 F9 00 F0 EA F9 00 F0 20 FA 00 F0 CF FA ...  returns 0x3C (0001ms, 3137ms total)
T0CE0 5084:848 JLINK_ReadMemEx(0x0800023C, 0x0002 Bytes, ..., Flags = 0x02000000) -- Read from C cache (2 bytes @ 0x0800023C) - Data: 00 F0  returns 0x02 (0000ms, 3137ms total)
T0CE0 5084:848 JLINK_ReadMemEx(0x0800023E, 0x0002 Bytes, ..., Flags = 0x02000000) -- Read from C cache (2 bytes @ 0x0800023E) - Data: 68 F9  returns 0x02 (0000ms, 3137ms total)
T0CE0 5084:848 JLINK_ReadMemEx(0x08000240, 0x003C Bytes, ..., Flags = 0x02000000) -- Read from C cache (60 bytes @ 0x08000240) - Data: 00 F0 EA F9 00 F0 20 FA 00 F0 CF FA 1A E0 0E 48 ...  returns 0x3C (0000ms, 3137ms total)
T0CE0 5084:848 JLINK_ReadMemEx(0x08000240, 0x0002 Bytes, ..., Flags = 0x02000000) -- Read from C cache (2 bytes @ 0x08000240) - Data: 00 F0  returns 0x02 (0000ms, 3137ms total)
T0CE0 5084:848 JLINK_ReadMemEx(0x08000242, 0x0002 Bytes, ..., Flags = 0x02000000) -- Read from C cache (2 bytes @ 0x08000242) - Data: EA F9  returns 0x02 (0000ms, 3137ms total)
T39F8 5085:016 JLINK_ReadMemEx(0x0800023C, 0x0002 Bytes, ..., Flags = 0x02000000) -- Read from C cache (2 bytes @ 0x0800023C) - Data: 00 F0  returns 0x02 (0000ms, 3137ms total)
T39F8 5085:016 JLINK_SetBPEx(Addr = 0x08000240, Type = 0xFFFFFFF2)  returns 0x00000005 (0000ms, 3137ms total)
T39F8 5085:016 JLINK_Go() -- CPU_WriteMem(4 bytes @ 0xE0002000) -- CPU_ReadMem(4 bytes @ 0xE0001000) -- CPU_WriteMem(4 bytes @ 0xE0002008) (0001ms, 3138ms total)
T39F8 5085:117 JLINK_IsHalted()  returns TRUE (0002ms, 3140ms total)
T39F8 5085:119 JLINK_Halt()  returns 0x00 (0000ms, 3138ms total)
T39F8 5085:119 JLINK_IsHalted()  returns TRUE (0000ms, 3138ms total)
T39F8 5085:119 JLINK_IsHalted()  returns TRUE (0000ms, 3138ms total)
T39F8 5085:119 JLINK_IsHalted()  returns TRUE (0000ms, 3138ms total)
T39F8 5085:119 JLINK_ReadReg(R15 (PC))  returns 0x08000240 (0000ms, 3138ms total)
T39F8 5085:119 JLINK_ReadReg(XPSR)  returns 0x61000000 (0000ms, 3138ms total)
T39F8 5085:119 JLINK_ClrBPEx(BPHandle = 0x00000005)  returns 0x00 (0000ms, 3138ms total)
T39F8 5085:119 JLINK_ReadMemU32(0xE000ED30, 0x0001 Items, ...) -- CPU_ReadMem(4 bytes @ 0xE000ED30) - Data: 02 00 00 00  returns 1 (0001ms, 3139ms total)
T39F8 5085:120 JLINK_ReadMemU32(0xE0001028, 0x0001 Items, ...) -- CPU_ReadMem(4 bytes @ 0xE0001028) - Data: 00 00 00 00  returns 1 (0000ms, 3139ms total)
T39F8 5085:120 JLINK_ReadMemU32(0xE0001038, 0x0001 Items, ...) -- CPU_ReadMem(4 bytes @ 0xE0001038) - Data: 00 02 00 00  returns 1 (0000ms, 3139ms total)
T39F8 5085:120 JLINK_ReadMemU32(0xE0001048, 0x0001 Items, ...) -- CPU_ReadMem(4 bytes @ 0xE0001048) - Data: 00 00 00 00  returns 1 (0001ms, 3140ms total)
T39F8 5085:121 JLINK_ReadMemU32(0xE0001058, 0x0001 Items, ...) -- CPU_ReadMem(4 bytes @ 0xE0001058) - Data: 00 00 00 00  returns 1 (0000ms, 3140ms total)
T39F8 5085:121 JLINK_ReadReg(R0)  returns 0x40021400 (0000ms, 3140ms total)
T39F8 5085:121 JLINK_ReadReg(R1)  returns 0x00000010 (0000ms, 3140ms total)
T39F8 5085:121 JLINK_ReadReg(R2)  returns 0x000003C0 (0000ms, 3140ms total)
T39F8 5085:121 JLINK_ReadReg(R3)  returns 0x01000300 (0000ms, 3140ms total)
T39F8 5085:121 JLINK_ReadReg(R4)  returns 0x00000000 (0000ms, 3140ms total)
T39F8 5085:121 JLINK_ReadReg(R5)  returns 0x200000B0 (0000ms, 3140ms total)
T39F8 5085:121 JLINK_ReadReg(R6)  returns 0x00000000 (0000ms, 3140ms total)
T39F8 5085:121 JLINK_ReadReg(R7)  returns 0x00000000 (0000ms, 3140ms total)
T39F8 5085:121 JLINK_ReadReg(R8)  returns 0x00000000 (0000ms, 3140ms total)
T39F8 5085:121 JLINK_ReadReg(R9)  returns 0x00000000 (0000ms, 3140ms total)
T39F8 5085:121 JLINK_ReadReg(R10)  returns 0x08001E38 (0000ms, 3140ms total)
T39F8 5085:121 JLINK_ReadReg(R11)  returns 0x00000000 (0000ms, 3140ms total)
T39F8 5085:121 JLINK_ReadReg(R12)  returns 0x00000150 (0000ms, 3140ms total)
T39F8 5085:121 JLINK_ReadReg(R13 (SP))  returns 0x20000710 (0000ms, 3140ms total)
T39F8 5085:121 JLINK_ReadReg(R14)  returns 0x0800053B (0000ms, 3140ms total)
T39F8 5085:121 JLINK_ReadReg(R15 (PC))  returns 0x08000240 (0000ms, 3140ms total)
T39F8 5085:121 JLINK_ReadReg(XPSR)  returns 0x61000000 (0000ms, 3140ms total)
T39F8 5085:121 JLINK_ReadReg(MSP)  returns 0x20000710 (0000ms, 3140ms total)
T39F8 5085:121 JLINK_ReadReg(PSP)  returns 0x00000000 (0000ms, 3140ms total)
T39F8 5085:121 JLINK_ReadReg(CFBP)  returns 0x04000000 (0000ms, 3140ms total)
T39F8 5085:121 JLINK_ReadReg(FPSCR)  returns 0x03000000 (0004ms, 3144ms total)
T39F8 5085:125 JLINK_ReadReg(FPS0)  returns 0x00000000 (0000ms, 3144ms total)
T39F8 5085:125 JLINK_ReadReg(FPS1)  returns 0x00000000 (0000ms, 3144ms total)
T39F8 5085:125 JLINK_ReadReg(FPS2)  returns 0x00000000 (0000ms, 3144ms total)
T39F8 5085:125 JLINK_ReadReg(FPS3)  returns 0x00000000 (0000ms, 3144ms total)
T39F8 5085:125 JLINK_ReadReg(FPS4)  returns 0x00000000 (0000ms, 3144ms total)
T39F8 5085:125 JLINK_ReadReg(FPS5)  returns 0x00000000 (0000ms, 3144ms total)
T39F8 5085:125 JLINK_ReadReg(FPS6)  returns 0x00000000 (0000ms, 3144ms total)
T39F8 5085:125 JLINK_ReadReg(FPS7)  returns 0x00000000 (0000ms, 3144ms total)
T39F8 5085:125 JLINK_ReadReg(FPS8)  returns 0x00000000 (0000ms, 3144ms total)
T39F8 5085:125 JLINK_ReadReg(FPS9)  returns 0x00000000 (0000ms, 3144ms total)
